
**** 11/17/24 13:33:20 *** PSpice 24.1.0 (4 September 2024) *** ID# 0 ********

 ** Profile: "SCHEMATIC1-PSF"  [ C:\Users\octav\Desktop\P1_2024_432E_TUFAN_OCTAVIAN_IOAN_SERS_N21_ORCAD\Schematics\SERS N21\Amplicare


 ****     CIRCUIT DESCRIPTION


******************************************************************************




** Creating circuit file "PSF.cir" 
** WARNING: THIS AUTOMATICALLY GENERATED FILE MAY BE OVERWRITTEN BY SUBSEQUENT SIMULATIONS

*Libraries: 
* Profile Libraries :
* Local Libraries :
.LIB "C:/Users/octav/Desktop/P1_2024_432E_TUFAN_OCTAVIAN_IOAN_SERS_N21_ORCAD/Schematics/lib/modele_lib/bc846b.lib" 
.LIB "C:/Users/octav/Desktop/P1_2024_432E_TUFAN_OCTAVIAN_IOAN_SERS_N21_ORCAD/Schematics/lib/modele_lib/bc856b.lib" 
.LIB "C:/Users/octav/Desktop/P1_2024_432E_TUFAN_OCTAVIAN_IOAN_SERS_N21_ORCAD/Schematics/lib/modele_lib/bzx84c8v2.lib" 
.LIB "C:/Users/octav/Desktop/P1_2024_432E_TUFAN_OCTAVIAN_IOAN_SERS_N21_ORCAD/Schematics/lib/modele_lib/mjd32cg.lib" 
* From [PSPICE NETLIST] section of C:\SPB_Data\cdssetup\OrCAD_PSpice\24.1.0\PSpice.ini file:
.lib "nom.lib" 

*Analysis directives: 
.OPTIONS ADVCONV
.PROBE64 V(alias(*)) I(alias(*)) W(alias(*)) D(alias(*)) NOISE(alias(*)) 
.INC "..\SCHEMATIC1.net" 



**** INCLUDING SCHEMATIC1.net ****
* source AMPLICARE_IN_BUCLA_DESCHISA
Q_Q1         N306188 N306110 N306008 QBC856B 
D_D2         0 N306214 BZX84-C8V2 
Q_Q4         N306110 N306308 N306320 QBC846B 
Q_Q3         N306188 N306214 N306320 QBC846B 
R_R3         N306214 N306020  4.7k TC=0,0 
R_R7         0 N306320  2.7k TC=0,0 
R_R1         N306020 N305870  4.7k TC=0,0 
V_V2         N306308 0  AC 0
+SIN 8.2 1 100 0 0 0
R_R5         N306008 N305870  220 TC=0,0 
R_R6         N306014 N305870  220 TC=0,0 
R_R2         N306020 N305870  4.7k TC=0,0 
V_V1         N305870 0 42
R_R4         N306214 N306020  4.7k TC=0,0 
Q_Q2         N306110 N306110 N306014 QBC856B 

**** RESUMING PSF.cir ****
.END

**** 11/17/24 13:33:20 *** PSpice 24.1.0 (4 September 2024) *** ID# 0 ********

 ** Profile: "SCHEMATIC1-PSF"  [ C:\Users\octav\Desktop\P1_2024_432E_TUFAN_OCTAVIAN_IOAN_SERS_N21_ORCAD\Schematics\SERS N21\Amplicare


 ****     Diode MODEL PARAMETERS


******************************************************************************




               BZX84-C8V2      
          IS  110.880000E-18 
           N     .92657      
         ISR  146.750000E-12 
         IKF  149.75         
          BV    8.3329       
         IBV    1.0062       
          RS     .85899      
          TT    2.770000E-06 
         CJO   54.185000E-12 
          VJ     .66823      
           M     .33443      


**** 11/17/24 13:33:20 *** PSpice 24.1.0 (4 September 2024) *** ID# 0 ********

 ** Profile: "SCHEMATIC1-PSF"  [ C:\Users\octav\Desktop\P1_2024_432E_TUFAN_OCTAVIAN_IOAN_SERS_N21_ORCAD\Schematics\SERS N21\Amplicare


 ****     BJT MODEL PARAMETERS


******************************************************************************




               QBC846B         QBC856B         
               NPN             PNP             
       LEVEL    1               1            
          IS   18.220000E-15   20.140000E-15 
          BF  324.4           315.3          
          NF     .9932           .9974       
         VAF   82              39.15         
         IKF     .109            .079        
         ISE  289.400000E-18    6.578000E-15 
          NE    1.4             1.45         
          BR    8.29            8.68         
          NR     .9931           .9952       
         VAR   17.9             9.5          
         IKR     .09             .09         
         ISC    9.982000E-12   16.330000E-15 
          NC    1.763           1.15         
         ISS    0               0            
          RB   10              10            
         RBM    5               5.000000E-06 
         IRB    5.000000E-06    5.000000E-06 
          RE     .649            .663        
          RC     .7014           .718        
         CJE   12.440000E-12   11.350000E-12 
         VJE     .7579           .7071       
         MJE     .3656           .3808       
         CJC    3.347000E-12    6.395000E-12 
         VJC     .5463           .4951       
         MJC     .391            .44         
        XCJC     .6193           .6288       
         CJS    0               0            
         VJS     .75             .75         
         MJS     .333            .333        
          FC     .979            .9059       
          TF  490.800000E-12  654.600000E-12 
         XTF    9.51            5.387        
         VTF    2.927           6.245        
         ITF     .3131           .2108       
          TR   90.000000E-09   55.000000E-09 
          KF    0               0            
          AF    1               1            
          CN    2.42            2.2          
           D     .87             .52         


**** 11/17/24 13:33:20 *** PSpice 24.1.0 (4 September 2024) *** ID# 0 ********

 ** Profile: "SCHEMATIC1-PSF"  [ C:\Users\octav\Desktop\P1_2024_432E_TUFAN_OCTAVIAN_IOAN_SERS_N21_ORCAD\Schematics\SERS N21\Amplicare


 ****     SMALL SIGNAL BIAS SOLUTION       TEMPERATURE =   27.000 DEG C


******************************************************************************



 NODE   VOLTAGE     NODE   VOLTAGE     NODE   VOLTAGE     NODE   VOLTAGE


(N305870)   42.0000                   (N306008)   41.6860                       

(N306014)   41.7010                   (N306020)   25.1060                       

(N306110)   41.0550                   (N306188)    7.6641                       

(N306214)    8.2112                   (N306308)    8.2000                       

(N306320)    7.5637                   




    VOLTAGE SOURCE CURRENTS
    NAME         CURRENT

    V_V2        -3.114E-06
    V_V1        -9.977E-03

    TOTAL POWER DISSIPATION   4.19E-01  WATTS



          JOB CONCLUDED

**** 11/17/24 13:33:20 *** PSpice 24.1.0 (4 September 2024) *** ID# 0 ********

 ** Profile: "SCHEMATIC1-PSF"  [ C:\Users\octav\Desktop\P1_2024_432E_TUFAN_OCTAVIAN_IOAN_SERS_N21_ORCAD\Schematics\SERS N21\Amplicare


 ****     JOB STATISTICS SUMMARY


******************************************************************************



  Total job time (using Solver 1)   =        0.00
